
T0380 000:433 SEGGER J-Link V4.80g Log File (0001ms, 0263ms total)
T0380 000:433 DLL Compiled: Feb 13 2014 20:50:02 (0001ms, 0263ms total)
T0380 000:433 Logging started @ 2017-10-05 17:43 (0001ms, 0263ms total)
T0380 000:434 JLINK_SetWarnOutHandler(...) (0000ms, 0263ms total)
T0380 000:434 JLINK_OpenEx(...)
Firmware: J-Link ARM V8 compiled Nov 25 2013 19:20:08
Hardware: V8.00
S/N: 17935099
Feature(s): RDI,FlashDL,FlashBP,JFlash  returns O.K. (0265ms, 0528ms total)
T0380 000:699 JLINK_SetErrorOutHandler(...) (0000ms, 0528ms total)
T0380 000:699 JLINK_ExecCommand("ProjectFile = "D:\gprs\SimCOM\ppp1\Project\RVMDK(uv5)\JLinkSettings.ini"", ...)  returns 0x00 (0001ms, 0529ms total)
T0380 000:700 JLINK_ExecCommand("Device = STM32F103C8", ...)Device "STM32F103C8" selected (64 KB flash, 20 KB RAM).  returns 0x00 (0001ms, 0530ms total)
T0380 000:701 JLINK_ExecCommand("DisableConnectionTimeout", ...)  returns 0x01 (0000ms, 0530ms total)
T0380 000:701 JLINK_GetHardwareVersion()  returns 0x13880 (0000ms, 0530ms total)
T0380 000:702 JLINK_GetDLLVersion()  returns 48007 (0000ms, 0531ms total)
T0380 000:702 JLINK_GetFirmwareString(...) (0000ms, 0531ms total)
T0380 000:702 JLINK_GetDLLVersion()  returns 48007 (0000ms, 0531ms total)
T0380 000:703 JLINK_GetCompileDateTime() (0000ms, 0532ms total)
T0380 000:703 JLINK_GetFirmwareString(...) (0000ms, 0532ms total)
T0380 000:703 JLINK_GetHardwareVersion()  returns 0x13880 (0000ms, 0532ms total)
T0380 000:704 JLINK_TIF_Select(JLINKARM_TIF_JTAG)  returns 0x00 (0003ms, 0535ms total)
T0380 000:707 JLINK_SetSpeed(2000) (0000ms, 0535ms total)
T0380 000:707 JLINK_GetIdData(...) >0x2F8 JTAG>TotalIRLen = 9, IRPrint = 0x0011 >0x30 JTAG> >0x210 JTAG> >0x40 JTAG> >0x40 JTAG> >0x40 JTAG> >0x30 JTAG> >0x40 JTAG> >0x40 JTAG> >0x40 JTAG> >0x40 JTAG> >0x40 JTAG> >0x40 JTAG> >0x40 JTAG> >0x40 JTAG> >0x2F8 JTAG>TotalIRLen = 9, IRPrint = 0x0011 >0x30 JTAG> >0x210 JTAG> >0x70 JTAG> >0x40 JTAG> >0x40 JTAG> >0x40 JTAG> >0x50 JTAG> >0x80 JTAG> >0x40 JTAG> >0x30 JTAG> >0x40 JTAG> >0x40 JTAG> >0x30 JTAG> >0x40 JTAG> >0x50 JTAG>
Found Cortex-M3 r1p1, Little endian. -- CPU_WriteMem(4 bytes @ 0xE0002000) -- CPU_ReadMem(4 bytes @ 0xE000EDF0) -- CPU_ReadMem(4 bytes @ 0xE0002000)FPUnit: 6 code (BP) slots and 2 literal slots -- CPU_ReadMem(4 bytes @ 0xE000EDFC) -- CPU_ReadMem(4 bytes @ 0xE0001000) -- CPU_WriteMem(4 bytes @ 0xE0001000) -- CPU_ReadMem(4 bytes @ 0xE00FF010)TPIU fitted. -- CPU_ReadMem(4 bytes @ 0xE00FF014) -- CPU_ReadMem(4 bytes @ 0xE00FF018) ScanLen=9 NumDevices=2 aId[0]=0x3BA00477 aIrRead[0]=0 aScanLen[0]=0
 aScanRead[0]=0 (0041ms, 0576ms total)
T0380 000:748 JLINK_JTAG_GetDeviceID(DeviceIndex = 0)  returns 0x3BA00477 (0000ms, 0576ms total)
T0380 000:748 JLINK_JTAG_GetDeviceInfo(DeviceIndex = 0)  returns 0x00 (0000ms, 0576ms total)
T0380 000:748 JLINK_JTAG_GetDeviceID(DeviceIndex = 1)  returns 0x16410041 (0000ms, 0576ms total)
T0380 000:748 JLINK_JTAG_GetDeviceInfo(DeviceIndex = 1)  returns 0x00 (0000ms, 0576ms total)
T0380 000:748 JLINK_GetDeviceFamily()  returns 3 (0000ms, 0576ms total)
T0380 000:749 JLINK_ReadMem (0xE00FFFF0, 0x0010 Bytes, ...) -- CPU is running -- CPU_ReadMem(16 bytes @ 0xE00FFFF0) -- Data:  0D 00 00 00 10 00 00 00 05 00 00 00 B1 00 00 00  returns 0x00 (0001ms, 0577ms total)
T0380 000:750 JLINK_ReadMem (0xE00FFFD0, 0x0020 Bytes, ...) -- CPU is running -- CPU_ReadMem(32 bytes @ 0xE00FFFD0) -- Data:  00 00 00 00 00 00 00 00 00 00 00 00 00 00 00 00 ...  returns 0x00 (0001ms, 0578ms total)
T0380 000:751 JLINK_ReadMem (0xE00FF000, 0x0018 Bytes, ...) -- CPU is running -- CPU_ReadMem(24 bytes @ 0xE00FF000) -- Data:  03 F0 F0 FF 03 20 F0 FF 03 30 F0 FF 03 10 F0 FF ...  returns 0x00 (0001ms, 0579ms total)
T0380 000:752 JLINK_ReadMemU32(0xE000ED00, 0x0001 Items, ...) -- CPU is running -- CPU_ReadMem(4 bytes @ 0xE000ED00) -- Data:  31 C2 1F 41  returns 0x01 (0001ms, 0580ms total)
T0380 000:753 JLINK_SetResetType(JLINKARM_RESET_TYPE_NORMAL)  returns JLINKARM_RESET_TYPE_NORMAL (0000ms, 0580ms total)
T0380 000:753 JLINK_Reset() -- CPU is running -- CPU_WriteMem(4 bytes @ 0xE000EDF0) -- CPU is running -- CPU_WriteMem(4 bytes @ 0xE000EDFC) -- CPU is running -- CPU_WriteMem(4 bytes @ 0xE000ED0C) -- CPU is running -- CPU_ReadMem(4 bytes @ 0xE000EDF0) -- CPU is running -- CPU_ReadMem(4 bytes @ 0xE000EDF0) -- CPU is running -- CPU_WriteMem(4 bytes @ 0xE000EDF0) -- CPU is running -- CPU_WriteMem(4 bytes @ 0xE000EDFC) -- CPU is running -- CPU_ReadMem(4 bytes @ 0xE000EDF0) >0x80 JTAG> >0x40 JTAG> >0x30 JTAG>
 >0x40 JTAG> >0x50 JTAG> >0x40 JTAG> -- CPU_WriteMem(4 bytes @ 0xE000EDFC) -- CPU_WriteMem(4 bytes @ 0xE0001028) -- CPU_WriteMem(4 bytes @ 0xE0001038) -- CPU_WriteMem(4 bytes @ 0xE0001048) -- CPU_WriteMem(4 bytes @ 0xE0001058) -- CPU_WriteMem(4 bytes @ 0xE0002000) -- CPU_ReadMem(4 bytes @ 0xE000EDFC) -- CPU_ReadMem(4 bytes @ 0xE0001000) (0037ms, 0617ms total)
T0380 000:790 JLINK_ReadReg(R15 (PC))  returns 0x08000100 (0000ms, 0617ms total)
T0380 000:790 JLINK_ReadReg(XPSR)  returns 0x01000000 (0000ms, 0617ms total)
T0380 000:790 JLINK_Halt()  returns 0x00 (0001ms, 0618ms total)
T0380 000:791 JLINK_IsHalted()  returns TRUE (0000ms, 0618ms total)
T0380 000:791 JLINK_ReadMemU32(0xE000EDF0, 0x0001 Items, ...) -- CPU_ReadMem(4 bytes @ 0xE000EDF0) -- Data:  03 00 03 00  returns 0x01 (0001ms, 0619ms total)
T0380 000:792 JLINK_WriteU32(0xE000EDF0, 0xA05F0003) -- CPU_WriteMem(4 bytes @ 0xE000EDF0)  returns 0x00 (0001ms, 0620ms total)
T0380 000:793 JLINK_WriteU32(0xE000EDFC, 0x01000000) -- CPU_WriteMem(4 bytes @ 0xE000EDFC)  returns 0x00 (0001ms, 0621ms total)
T0380 000:795 JLINK_GetHWStatus(...)  returns 0x00 (0001ms, 0622ms total)
T0380 000:797 JLINK_GetNumBPUnits(Type = 0xFFFFFF00)  returns 0x06 (0000ms, 0622ms total)
T0380 000:797 JLINK_GetNumBPUnits(Type = 0xF0)  returns 0x2000 (0000ms, 0622ms total)
T0380 000:797 JLINK_GetNumWPUnits()  returns 0x04 (0000ms, 0622ms total)
T0380 000:798 JLINK_GetSpeed()  returns 0x7D0 (0000ms, 0622ms total)
T0380 000:798 JLINK_ReadMemU32(0xE000E004, 0x0001 Items, ...) -- CPU_ReadMem(4 bytes @ 0xE000E004) -- Data:  01 00 00 00  returns 0x01 (0001ms, 0623ms total)
T0380 000:799 JLINK_ReadMemU32(0xE000E004, 0x0001 Items, ...) -- CPU_ReadMem(4 bytes @ 0xE000E004) -- Data:  01 00 00 00  returns 0x01 (0001ms, 0624ms total)
T0380 000:800 JLINK_WriteMem(0xE0001000, 0x001C Bytes, ...) -- Data:  01 00 00 00 00 00 00 00 00 00 00 00 00 00 00 00 ... -- CPU_WriteMem(28 bytes @ 0xE0001000)  returns 0x1C (0001ms, 0625ms total)
T0380 000:801 JLINK_ReadMem (0xE0001000, 0x001C Bytes, ...) -- CPU_ReadMem(28 bytes @ 0xE0001000) -- Data:  01 00 00 40 00 00 00 00 00 00 00 00 00 00 00 00 ...  returns 0x00 (0001ms, 0626ms total)
T0380 000:802 JLINK_ReadReg(R15 (PC))  returns 0x08000100 (0000ms, 0626ms total)
T0380 000:802 JLINK_ReadReg(XPSR)  returns 0x01000000 (0000ms, 0626ms total)
T0380 000:873 JLINK_SetResetType(JLINKARM_RESET_TYPE_NORMAL)  returns JLINKARM_RESET_TYPE_NORMAL (0000ms, 0626ms total)
T0380 000:873 JLINK_Reset() -- CPU_WriteMem(4 bytes @ 0xE000EDF0) -- CPU_WriteMem(4 bytes @ 0xE000EDFC) -- CPU_WriteMem(4 bytes @ 0xE000ED0C) -- CPU_ReadMem(4 bytes @ 0xE000EDF0) -- CPU_ReadMem(4 bytes @ 0xE000EDF0) -- CPU_WriteMem(4 bytes @ 0xE000EDF0) -- CPU_WriteMem(4 bytes @ 0xE000EDFC) -- CPU is running -- CPU_ReadMem(4 bytes @ 0xE000EDF0) >0x80 JTAG> >0x40 JTAG> >0x30 JTAG> >0x40 JTAG> >0x50 JTAG> >0x40 JTAG> -- CPU_WriteMem(4 bytes @ 0xE000EDFC) -- CPU_WriteMem(4 bytes @ 0xE0001028)
 -- CPU_WriteMem(4 bytes @ 0xE0001038) -- CPU_WriteMem(4 bytes @ 0xE0001048) -- CPU_WriteMem(4 bytes @ 0xE0001058) -- CPU_WriteMem(4 bytes @ 0xE0002000) -- CPU_ReadMem(4 bytes @ 0xE000EDFC) -- CPU_ReadMem(4 bytes @ 0xE0001000) (0034ms, 0660ms total)
T0380 000:907 JLINK_ReadReg(R15 (PC))  returns 0x08000100 (0000ms, 0660ms total)
T0380 000:907 JLINK_ReadReg(XPSR)  returns 0x01000000 (0000ms, 0660ms total)
T0380 000:907 JLINK_ReadMem (0x08000100, 0x003C Bytes, ...) -- CPU_ReadMem(64 bytes @ 0x08000100) -- Updating C cache (64 bytes @ 0x08000100) -- Read from C cache (60 bytes @ 0x08000100) -- Data:  06 48 80 47 06 48 00 47 FE E7 FE E7 FE E7 FE E7 ...  returns 0x00 (0002ms, 0662ms total)
T0CF4 001:697 JLINK_SetBPEx(Addr = 0x08000A38, Type = 0xFFFFFFF2)  returns 0x00000001 (0000ms, 0662ms total)
T0CF4 001:697 JLINK_Go() -- CPU_WriteMem(4 bytes @ 0xE0002008) -- CPU_WriteMem(4 bytes @ 0xE000200C) -- CPU_WriteMem(4 bytes @ 0xE0002010) -- CPU_WriteMem(4 bytes @ 0xE0002014) -- CPU_WriteMem(4 bytes @ 0xE0002018) -- CPU_WriteMem(4 bytes @ 0xE000201C) -- CPU_WriteMem(4 bytes @ 0xE0001004) (0006ms, 0668ms total)
T0CF4 001:804 JLINK_IsHalted()  returns TRUE (0005ms, 0673ms total)
T0CF4 001:809 JLINK_Halt()  returns 0x00 (0000ms, 0668ms total)
T0CF4 001:809 JLINK_IsHalted()  returns TRUE (0000ms, 0668ms total)
T0CF4 001:809 JLINK_IsHalted()  returns TRUE (0000ms, 0668ms total)
T0CF4 001:809 JLINK_IsHalted()  returns TRUE (0001ms, 0669ms total)
T0CF4 001:810 JLINK_ReadReg(R15 (PC))  returns 0x08000A38 (0000ms, 0668ms total)
T0CF4 001:810 JLINK_ReadReg(XPSR)  returns 0x61000000 (0000ms, 0668ms total)
T0CF4 001:810 JLINK_ClrBPEx(BPHandle = 0x00000001)  returns 0x00 (0000ms, 0668ms total)
T0CF4 001:810 JLINK_ReadMemU32(0xE000ED30, 0x0001 Items, ...) -- CPU_ReadMem(4 bytes @ 0xE000ED30) -- Data:  03 00 00 00  returns 0x01 (0001ms, 0669ms total)
T0CF4 001:811 JLINK_ReadMemU32(0xE0001028, 0x0001 Items, ...) -- CPU_ReadMem(4 bytes @ 0xE0001028) -- Data:  00 00 00 00  returns 0x01 (0001ms, 0670ms total)
T0CF4 001:812 JLINK_ReadMemU32(0xE0001038, 0x0001 Items, ...) -- CPU_ReadMem(4 bytes @ 0xE0001038) -- Data:  00 02 00 00  returns 0x01 (0001ms, 0671ms total)
T0CF4 001:813 JLINK_ReadMemU32(0xE0001048, 0x0001 Items, ...) -- CPU_ReadMem(4 bytes @ 0xE0001048) -- Data:  00 00 00 00  returns 0x01 (0001ms, 0672ms total)
T0CF4 001:814 JLINK_ReadMemU32(0xE0001058, 0x0001 Items, ...) -- CPU_ReadMem(4 bytes @ 0xE0001058) -- Data:  00 00 00 00  returns 0x01 (0001ms, 0673ms total)
T0CF4 001:815 JLINK_ReadReg(R0)  returns 0x08000A39 (0000ms, 0673ms total)
T0CF4 001:815 JLINK_ReadReg(R1)  returns 0x20001198 (0000ms, 0673ms total)
T0CF4 001:815 JLINK_ReadReg(R2)  returns 0x00000000 (0001ms, 0674ms total)
T0CF4 001:816 JLINK_ReadReg(R3)  returns 0x080009E5 (0000ms, 0674ms total)
T0CF4 001:816 JLINK_ReadReg(R4)  returns 0x08000DC4 (0000ms, 0674ms total)
T0CF4 001:816 JLINK_ReadReg(R5)  returns 0x08000DC4 (0000ms, 0674ms total)
T0CF4 001:816 JLINK_ReadReg(R6)  returns 0x00000000 (0000ms, 0674ms total)
T0CF4 001:816 JLINK_ReadReg(R7)  returns 0x00000000 (0000ms, 0674ms total)
T0CF4 001:816 JLINK_ReadReg(R8)  returns 0x00000000 (0000ms, 0674ms total)
T0CF4 001:816 JLINK_ReadReg(R9)  returns 0x20000160 (0000ms, 0674ms total)
T0CF4 001:816 JLINK_ReadReg(R10)  returns 0x00000000 (0000ms, 0674ms total)
T0CF4 001:816 JLINK_ReadReg(R11)  returns 0x00000000 (0000ms, 0674ms total)
T0CF4 001:816 JLINK_ReadReg(R12)  returns 0x00000000 (0001ms, 0675ms total)
T0CF4 001:817 JLINK_ReadReg(R13 (SP))  returns 0x20001198 (0000ms, 0675ms total)
T0CF4 001:817 JLINK_ReadReg(R14)  returns 0x08000165 (0000ms, 0675ms total)
T0CF4 001:817 JLINK_ReadReg(R15 (PC))  returns 0x08000A38 (0000ms, 0675ms total)
T0CF4 001:817 JLINK_ReadReg(XPSR)  returns 0x61000000 (0000ms, 0675ms total)
T0CF4 001:817 JLINK_ReadReg(MSP)  returns 0x20001198 (0000ms, 0675ms total)
T0CF4 001:817 JLINK_ReadReg(PSP)  returns 0x20001000 (0000ms, 0675ms total)
T0CF4 001:817 JLINK_ReadReg(CFBP)  returns 0x00000000 (0000ms, 0675ms total)
T0380 001:827 JLINK_ReadMemU32(0xE0001004, 0x0001 Items, ...) -- CPU_ReadMem(4 bytes @ 0xE0001004) -- Data:  93 33 00 00  returns 0x01 (0001ms, 0676ms total)
T0380 001:828 JLINK_ReadMem (0x08000A38, 0x003C Bytes, ...) -- CPU_ReadMem(128 bytes @ 0x08000A00) -- Updating C cache (128 bytes @ 0x08000A00) -- Read from C cache (60 bytes @ 0x08000A38) -- Data:  4F F4 E1 30 00 F0 E2 F8 4F F4 E1 30 00 F0 0E F8 ...  returns 0x00 (0003ms, 0679ms total)
T0CF4 002:239 JLINK_Step() -- Read from C cache (2 bytes @ 0x08000A38) -- Read from C cache (2 bytes @ 0x08000A3A) -- Simulated  returns 0x00 (0001ms, 0680ms total)
T0CF4 002:240 JLINK_ReadReg(R15 (PC))  returns 0x08000A3C (0000ms, 0680ms total)
T0CF4 002:240 JLINK_ReadReg(XPSR)  returns 0x61000000 (0000ms, 0680ms total)
T0CF4 002:240 JLINK_SetBPEx(Addr = 0x08000A40, Type = 0xFFFFFFF2)  returns 0x00000002 (0000ms, 0680ms total)
T0CF4 002:240 JLINK_SetBPEx(Addr = 0x08000A38, Type = 0xFFFFFFF2)  returns 0x00000003 (0000ms, 0680ms total)
T0CF4 002:240 JLINK_Go() -- CPU_WriteMem(4 bytes @ 0xE0002008) -- CPU_WriteMem(4 bytes @ 0xE000200C) -- CPU_WriteMem(4 bytes @ 0xE0001004) (0005ms, 0685ms total)
T0CF4 002:346 JLINK_IsHalted()  returns TRUE (0005ms, 0690ms total)
T0CF4 002:351 JLINK_Halt()  returns 0x00 (0000ms, 0685ms total)
T0CF4 002:351 JLINK_IsHalted()  returns TRUE (0000ms, 0685ms total)
T0CF4 002:351 JLINK_IsHalted()  returns TRUE (0001ms, 0686ms total)
T0CF4 002:352 JLINK_IsHalted()  returns TRUE (0000ms, 0685ms total)
T0CF4 002:352 JLINK_ReadReg(R15 (PC))  returns 0x08000A40 (0000ms, 0685ms total)
T0CF4 002:352 JLINK_ReadReg(XPSR)  returns 0x81000000 (0000ms, 0685ms total)
T0CF4 002:352 JLINK_ClrBPEx(BPHandle = 0x00000002)  returns 0x00 (0000ms, 0685ms total)
T0CF4 002:352 JLINK_ClrBPEx(BPHandle = 0x00000003)  returns 0x00 (0000ms, 0685ms total)
T0CF4 002:352 JLINK_ReadMemU32(0xE000ED30, 0x0001 Items, ...) -- CPU_ReadMem(4 bytes @ 0xE000ED30) -- Data:  03 00 00 00  returns 0x01 (0001ms, 0686ms total)
T0CF4 002:353 JLINK_ReadMemU32(0xE0001028, 0x0001 Items, ...) -- CPU_ReadMem(4 bytes @ 0xE0001028) -- Data:  00 00 00 00  returns 0x01 (0001ms, 0687ms total)
T0CF4 002:354 JLINK_ReadMemU32(0xE0001038, 0x0001 Items, ...) -- CPU_ReadMem(4 bytes @ 0xE0001038) -- Data:  00 02 00 00  returns 0x01 (0002ms, 0689ms total)
T0CF4 002:356 JLINK_ReadMemU32(0xE0001048, 0x0001 Items, ...) -- CPU_ReadMem(4 bytes @ 0xE0001048) -- Data:  00 00 00 00  returns 0x01 (0001ms, 0690ms total)
T0CF4 002:357 JLINK_ReadMemU32(0xE0001058, 0x0001 Items, ...) -- CPU_ReadMem(4 bytes @ 0xE0001058) -- Data:  00 00 00 00  returns 0x01 (0001ms, 0691ms total)
T0CF4 002:358 JLINK_ReadReg(R0)  returns 0x20000C98 (0000ms, 0691ms total)
T0CF4 002:358 JLINK_ReadReg(R1)  returns 0xFFFFFFFF (0000ms, 0691ms total)
T0CF4 002:358 JLINK_ReadReg(R2)  returns 0x00000000 (0000ms, 0691ms total)
T0CF4 002:358 JLINK_ReadReg(R3)  returns 0x000000C0 (0000ms, 0691ms total)
T0CF4 002:358 JLINK_ReadReg(R4)  returns 0x08000DC4 (0000ms, 0691ms total)
T0CF4 002:358 JLINK_ReadReg(R5)  returns 0x08000DC4 (0000ms, 0691ms total)
T0CF4 002:358 JLINK_ReadReg(R6)  returns 0x00000000 (0000ms, 0691ms total)
T0CF4 002:358 JLINK_ReadReg(R7)  returns 0x00000000 (0000ms, 0691ms total)
T0CF4 002:358 JLINK_ReadReg(R8)  returns 0x00000000 (0000ms, 0691ms total)
T0CF4 002:359 JLINK_ReadReg(R9)  returns 0x20000160 (0000ms, 0692ms total)
T0CF4 002:359 JLINK_ReadReg(R10)  returns 0x00000000 (0000ms, 0692ms total)
T0CF4 002:359 JLINK_ReadReg(R11)  returns 0x00000000 (0000ms, 0692ms total)
T0CF4 002:359 JLINK_ReadReg(R12)  returns 0x00000008 (0000ms, 0692ms total)
T0CF4 002:359 JLINK_ReadReg(R13 (SP))  returns 0x20001198 (0000ms, 0692ms total)
T0CF4 002:359 JLINK_ReadReg(R14)  returns 0x08000D8B (0000ms, 0692ms total)
T0CF4 002:359 JLINK_ReadReg(R15 (PC))  returns 0x08000A40 (0000ms, 0692ms total)
T0CF4 002:359 JLINK_ReadReg(XPSR)  returns 0x81000000 (0000ms, 0692ms total)
T0CF4 002:359 JLINK_ReadReg(MSP)  returns 0x20001198 (0000ms, 0692ms total)
T0CF4 002:359 JLINK_ReadReg(PSP)  returns 0x20001000 (0001ms, 0693ms total)
T0CF4 002:360 JLINK_ReadReg(CFBP)  returns 0x00000000 (0000ms, 0693ms total)
T0380 002:361 JLINK_ReadMemU32(0xE0001004, 0x0001 Items, ...) -- CPU_ReadMem(4 bytes @ 0xE0001004) -- Data:  F4 86 00 00  returns 0x01 (0001ms, 0694ms total)
T0380 002:362 JLINK_ReadMem (0x08000A40, 0x003C Bytes, ...) -- CPU_ReadMem(64 bytes @ 0x08000A40) -- Updating C cache (64 bytes @ 0x08000A40) -- Read from C cache (60 bytes @ 0x08000A40) -- Data:  4F F4 E1 30 00 F0 0E F8 02 E0 02 A0 FF F7 BA FF ...  returns 0x00 (0002ms, 0696ms total)
T0CF4 002:467 JLINK_Step() -- Read from C cache (2 bytes @ 0x08000A40) -- Read from C cache (2 bytes @ 0x08000A42) -- Simulated  returns 0x00 (0001ms, 0697ms total)
T0CF4 002:468 JLINK_ReadReg(R15 (PC))  returns 0x08000A44 (0000ms, 0697ms total)
T0CF4 002:468 JLINK_ReadReg(XPSR)  returns 0x81000000 (0000ms, 0697ms total)
T0CF4 002:468 JLINK_SetBPEx(Addr = 0x08000A48, Type = 0xFFFFFFF2)  returns 0x00000004 (0000ms, 0697ms total)
T0CF4 002:468 JLINK_SetBPEx(Addr = 0x08000A38, Type = 0xFFFFFFF2)  returns 0x00000005 (0000ms, 0697ms total)
T0CF4 002:468 JLINK_Go() -- CPU_WriteMem(4 bytes @ 0xE0002008) -- CPU_WriteMem(4 bytes @ 0xE0001004) (0004ms, 0701ms total)
T0CF4 002:574 JLINK_IsHalted()  returns TRUE (0005ms, 0706ms total)
T0CF4 002:579 JLINK_Halt()  returns 0x00 (0000ms, 0701ms total)
T0CF4 002:579 JLINK_IsHalted()  returns TRUE (0000ms, 0701ms total)
T0CF4 002:579 JLINK_IsHalted()  returns TRUE (0000ms, 0701ms total)
T0CF4 002:579 JLINK_IsHalted()  returns TRUE (0000ms, 0701ms total)
T0CF4 002:579 JLINK_ReadReg(R15 (PC))  returns 0x08000A48 (0001ms, 0702ms total)
T0CF4 002:580 JLINK_ReadReg(XPSR)  returns 0x81000000 (0000ms, 0702ms total)
T0CF4 002:580 JLINK_ClrBPEx(BPHandle = 0x00000004)  returns 0x00 (0000ms, 0702ms total)
T0CF4 002:580 JLINK_ClrBPEx(BPHandle = 0x00000005)  returns 0x00 (0000ms, 0702ms total)
T0CF4 002:580 JLINK_ReadMemU32(0xE000ED30, 0x0001 Items, ...) -- CPU_ReadMem(4 bytes @ 0xE000ED30) -- Data:  03 00 00 00  returns 0x01 (0001ms, 0703ms total)
T0CF4 002:581 JLINK_ReadMemU32(0xE0001028, 0x0001 Items, ...) -- CPU_ReadMem(4 bytes @ 0xE0001028) -- Data:  00 00 00 00  returns 0x01 (0001ms, 0704ms total)
T0CF4 002:582 JLINK_ReadMemU32(0xE0001038, 0x0001 Items, ...) -- CPU_ReadMem(4 bytes @ 0xE0001038) -- Data:  00 02 00 00  returns 0x01 (0001ms, 0705ms total)
T0CF4 002:583 JLINK_ReadMemU32(0xE0001048, 0x0001 Items, ...) -- CPU_ReadMem(4 bytes @ 0xE0001048) -- Data:  00 00 00 00  returns 0x01 (0001ms, 0706ms total)
T0CF4 002:584 JLINK_ReadMemU32(0xE0001058, 0x0001 Items, ...) -- CPU_ReadMem(4 bytes @ 0xE0001058) -- Data:  00 00 00 00  returns 0x01 (0001ms, 0707ms total)
T0CF4 002:585 JLINK_ReadReg(R0)  returns 0x20000D98 (0000ms, 0707ms total)
T0CF4 002:585 JLINK_ReadReg(R1)  returns 0xFFFFFFFF (0000ms, 0707ms total)
T0CF4 002:586 JLINK_ReadReg(R2)  returns 0x00000000 (0000ms, 0707ms total)
T0CF4 002:586 JLINK_ReadReg(R3)  returns 0x000000C0 (0000ms, 0707ms total)
T0CF4 002:586 JLINK_ReadReg(R4)  returns 0x08000DC4 (0000ms, 0707ms total)
T0CF4 002:586 JLINK_ReadReg(R5)  returns 0x08000DC4 (0000ms, 0707ms total)
T0CF4 002:586 JLINK_ReadReg(R6)  returns 0x00000000 (0000ms, 0707ms total)
T0CF4 002:586 JLINK_ReadReg(R7)  returns 0x00000000 (0000ms, 0707ms total)
T0CF4 002:586 JLINK_ReadReg(R8)  returns 0x00000000 (0000ms, 0707ms total)
T0CF4 002:586 JLINK_ReadReg(R9)  returns 0x20000160 (0000ms, 0707ms total)
T0CF4 002:586 JLINK_ReadReg(R10)  returns 0x00000000 (0000ms, 0707ms total)
T0CF4 002:586 JLINK_ReadReg(R11)  returns 0x00000000 (0000ms, 0707ms total)
T0CF4 002:587 JLINK_ReadReg(R12)  returns 0x00000400 (0000ms, 0708ms total)
T0CF4 002:587 JLINK_ReadReg(R13 (SP))  returns 0x20001198 (0000ms, 0708ms total)
T0CF4 002:587 JLINK_ReadReg(R14)  returns 0x08000BEB (0000ms, 0708ms total)
T0CF4 002:587 JLINK_ReadReg(R15 (PC))  returns 0x08000A48 (0000ms, 0708ms total)
T0CF4 002:587 JLINK_ReadReg(XPSR)  returns 0x81000000 (0000ms, 0708ms total)
T0CF4 002:587 JLINK_ReadReg(MSP)  returns 0x20001198 (0000ms, 0708ms total)
T0CF4 002:587 JLINK_ReadReg(PSP)  returns 0x20001000 (0000ms, 0708ms total)
T0CF4 002:587 JLINK_ReadReg(CFBP)  returns 0x00000000 (0000ms, 0708ms total)
T0380 002:590 JLINK_ReadMemU32(0xE0001004, 0x0001 Items, ...) -- CPU_ReadMem(4 bytes @ 0xE0001004) -- Data:  BB 95 00 00  returns 0x01 (0001ms, 0709ms total)
T0380 002:591 JLINK_ReadMem (0x08000A48, 0x003C Bytes, ...) -- CPU_ReadMem(128 bytes @ 0x08000A40) -- Updating C cache (128 bytes @ 0x08000A40) -- Read from C cache (60 bytes @ 0x08000A48) -- Data:  02 E0 02 A0 FF F7 BA FF FB E7 00 00 48 45 4C 4C ...  returns 0x00 (0002ms, 0711ms total)
T0CF4 002:682 JLINK_Step() -- Read from C cache (2 bytes @ 0x08000A48) -- Simulated  returns 0x00 (0000ms, 0711ms total)
T0CF4 002:682 JLINK_ReadReg(R15 (PC))  returns 0x08000A50 (0000ms, 0711ms total)
T0CF4 002:682 JLINK_ReadReg(XPSR)  returns 0x81000000 (0000ms, 0711ms total)
T0CF4 002:682 JLINK_Step() -- Read from C cache (2 bytes @ 0x08000A50) -- Simulated  returns 0x00 (0000ms, 0711ms total)
T0CF4 002:682 JLINK_ReadReg(R15 (PC))  returns 0x08000A4A (0000ms, 0711ms total)
T0CF4 002:682 JLINK_ReadReg(XPSR)  returns 0x81000000 (0000ms, 0711ms total)
T0CF4 002:683 JLINK_ReadReg(R0)  returns 0x20000D98 (0000ms, 0711ms total)
T0CF4 002:683 JLINK_ReadReg(R1)  returns 0xFFFFFFFF (0000ms, 0711ms total)
T0CF4 002:683 JLINK_ReadReg(R2)  returns 0x00000000 (0000ms, 0711ms total)
T0CF4 002:683 JLINK_ReadReg(R3)  returns 0x000000C0 (0000ms, 0711ms total)
T0CF4 002:683 JLINK_ReadReg(R4)  returns 0x08000DC4 (0000ms, 0711ms total)
T0CF4 002:683 JLINK_ReadReg(R5)  returns 0x08000DC4 (0000ms, 0711ms total)
T0CF4 002:683 JLINK_ReadReg(R6)  returns 0x00000000 (0000ms, 0711ms total)
T0CF4 002:683 JLINK_ReadReg(R7)  returns 0x00000000 (0000ms, 0711ms total)
T0CF4 002:683 JLINK_ReadReg(R8)  returns 0x00000000 (0000ms, 0711ms total)
T0CF4 002:683 JLINK_ReadReg(R9)  returns 0x20000160 (0000ms, 0711ms total)
T0CF4 002:683 JLINK_ReadReg(R10)  returns 0x00000000 (0001ms, 0712ms total)
T0CF4 002:684 JLINK_ReadReg(R11)  returns 0x00000000 (0000ms, 0712ms total)
T0CF4 002:684 JLINK_ReadReg(R12)  returns 0x00000400 (0000ms, 0712ms total)
T0CF4 002:684 JLINK_ReadReg(R13 (SP))  returns 0x20001198 (0000ms, 0712ms total)
T0CF4 002:684 JLINK_ReadReg(R14)  returns 0x08000BEB (0000ms, 0712ms total)
T0CF4 002:684 JLINK_ReadReg(R15 (PC))  returns 0x08000A4A (0000ms, 0712ms total)
T0CF4 002:684 JLINK_ReadReg(XPSR)  returns 0x81000000 (0000ms, 0712ms total)
T0CF4 002:684 JLINK_ReadReg(MSP)  returns 0x20001198 (0000ms, 0712ms total)
T0CF4 002:684 JLINK_ReadReg(PSP)  returns 0x20001000 (0000ms, 0712ms total)
T0CF4 002:684 JLINK_ReadReg(CFBP)  returns 0x00000000 (0000ms, 0712ms total)
T0380 002:687 JLINK_ReadMemU32(0xE0001004, 0x0001 Items, ...) -- Data:  BB 95 00 00  returns 0x01 (0000ms, 0712ms total)
T0CF4 002:964 JLINK_ReadMem (0x08000A4A, 0x0002 Bytes, ...) -- Read from C cache (2 bytes @ 0x08000A4A) -- Data:  02 A0  returns 0x00 (0001ms, 0713ms total)
T0CF4 002:965 JLINK_ReadMem (0x08000A4C, 0x003C Bytes, ...) -- Read from C cache (60 bytes @ 0x08000A4C) -- Data:  FF F7 BA FF FB E7 00 00 48 45 4C 4C 4F 2C 20 57 ...  returns 0x00 (0000ms, 0713ms total)
T0CF4 002:965 JLINK_Step() -- Read from C cache (2 bytes @ 0x08000A4A) -- Simulated  returns 0x00 (0001ms, 0714ms total)
T0CF4 002:966 JLINK_ReadReg(R15 (PC))  returns 0x08000A4C (0000ms, 0714ms total)
T0CF4 002:966 JLINK_ReadReg(XPSR)  returns 0x81000000 (0000ms, 0714ms total)
T0CF4 002:966 JLINK_SetBPEx(Addr = 0x08000A50, Type = 0xFFFFFFF2)  returns 0x00000006 (0000ms, 0714ms total)
T0CF4 002:966 JLINK_SetBPEx(Addr = 0x08000A38, Type = 0xFFFFFFF2)  returns 0x00000007 (0000ms, 0714ms total)
T0CF4 002:966 JLINK_Go() -- CPU_WriteMem(4 bytes @ 0xE0002008) -- CPU_WriteMem(4 bytes @ 0xE0001004) (0004ms, 0718ms total)
T0CF4 003:071 JLINK_IsHalted()  returns TRUE (0005ms, 0723ms total)
T0CF4 003:076 JLINK_Halt()  returns 0x00 (0000ms, 0718ms total)
T0CF4 003:076 JLINK_IsHalted()  returns TRUE (0000ms, 0718ms total)
T0CF4 003:076 JLINK_IsHalted()  returns TRUE (0000ms, 0718ms total)
T0CF4 003:076 JLINK_IsHalted()  returns TRUE (0000ms, 0718ms total)
T0CF4 003:076 JLINK_ReadReg(R15 (PC))  returns 0x08000A50 (0001ms, 0719ms total)
T0CF4 003:077 JLINK_ReadReg(XPSR)  returns 0x61000000 (0000ms, 0719ms total)
T0CF4 003:077 JLINK_ClrBPEx(BPHandle = 0x00000006)  returns 0x00 (0000ms, 0719ms total)
T0CF4 003:077 JLINK_ClrBPEx(BPHandle = 0x00000007)  returns 0x00 (0000ms, 0719ms total)
T0CF4 003:077 JLINK_ReadMemU32(0xE000ED30, 0x0001 Items, ...) -- CPU_ReadMem(4 bytes @ 0xE000ED30) -- Data:  03 00 00 00  returns 0x01 (0001ms, 0720ms total)
T0CF4 003:078 JLINK_ReadMemU32(0xE0001028, 0x0001 Items, ...) -- CPU_ReadMem(4 bytes @ 0xE0001028) -- Data:  00 00 00 00  returns 0x01 (0001ms, 0721ms total)
T0CF4 003:079 JLINK_ReadMemU32(0xE0001038, 0x0001 Items, ...) -- CPU_ReadMem(4 bytes @ 0xE0001038) -- Data:  00 02 00 00  returns 0x01 (0002ms, 0723ms total)
T0CF4 003:081 JLINK_ReadMemU32(0xE0001048, 0x0001 Items, ...) -- CPU_ReadMem(4 bytes @ 0xE0001048) -- Data:  00 00 00 00  returns 0x01 (0001ms, 0724ms total)
T0CF4 003:082 JLINK_ReadMemU32(0xE0001058, 0x0001 Items, ...) -- CPU_ReadMem(4 bytes @ 0xE0001058) -- Data:  00 00 00 00  returns 0x01 (0001ms, 0725ms total)
T0CF4 003:083 JLINK_Step() -- CPU_ReadMem(64 bytes @ 0x08000A40) -- Updating C cache (64 bytes @ 0x08000A40) -- Read from C cache (2 bytes @ 0x08000A50) -- CPU_ReadMem(4 bytes @ 0xE0001004) -- Simulated  returns 0x00 (0002ms, 0727ms total)
T0CF4 003:085 JLINK_ReadReg(R15 (PC))  returns 0x08000A4A (0000ms, 0727ms total)
T0CF4 003:085 JLINK_ReadReg(XPSR)  returns 0x61000000 (0001ms, 0728ms total)
T0CF4 003:086 JLINK_ReadReg(R0)  returns 0x0000000D (0000ms, 0728ms total)
T0CF4 003:086 JLINK_ReadReg(R1)  returns 0x00000040 (0000ms, 0728ms total)
T0CF4 003:086 JLINK_ReadReg(R2)  returns 0x40013800 (0000ms, 0728ms total)
T0CF4 003:086 JLINK_ReadReg(R3)  returns 0x00000040 (0000ms, 0728ms total)
T0CF4 003:086 JLINK_ReadReg(R4)  returns 0x08000DC4 (0000ms, 0728ms total)
T0CF4 003:086 JLINK_ReadReg(R5)  returns 0x08000DC4 (0000ms, 0728ms total)
T0CF4 003:086 JLINK_ReadReg(R6)  returns 0x00000000 (0000ms, 0728ms total)
T0CF4 003:086 JLINK_ReadReg(R7)  returns 0x00000000 (0000ms, 0728ms total)
T0CF4 003:086 JLINK_ReadReg(R8)  returns 0x00000000 (0001ms, 0729ms total)
T0CF4 003:087 JLINK_ReadReg(R9)  returns 0x20000160 (0000ms, 0729ms total)
T0CF4 003:087 JLINK_ReadReg(R10)  returns 0x00000000 (0000ms, 0729ms total)
T0CF4 003:087 JLINK_ReadReg(R11)  returns 0x00000000 (0000ms, 0729ms total)
T0CF4 003:087 JLINK_ReadReg(R12)  returns 0x00000400 (0000ms, 0729ms total)
T0CF4 003:087 JLINK_ReadReg(R13 (SP))  returns 0x20001198 (0000ms, 0729ms total)
T0CF4 003:087 JLINK_ReadReg(R14)  returns 0x08000A2D (0000ms, 0729ms total)
T0CF4 003:087 JLINK_ReadReg(R15 (PC))  returns 0x08000A4A (0000ms, 0729ms total)
T0CF4 003:087 JLINK_ReadReg(XPSR)  returns 0x61000000 (0000ms, 0729ms total)
T0CF4 003:087 JLINK_ReadReg(MSP)  returns 0x20001198 (0000ms, 0729ms total)
T0CF4 003:087 JLINK_ReadReg(PSP)  returns 0x20001000 (0001ms, 0730ms total)
T0CF4 003:088 JLINK_ReadReg(CFBP)  returns 0x00000000 (0000ms, 0730ms total)
T0380 003:089 JLINK_ReadMemU32(0xE0001004, 0x0001 Items, ...) -- Data:  51 D8 01 00  returns 0x01 (0000ms, 0730ms total)
T0CF4 003:305 JLINK_ReadMem (0x08000A4A, 0x0002 Bytes, ...) -- Read from C cache (2 bytes @ 0x08000A4A) -- Data:  02 A0  returns 0x00 (0001ms, 0731ms total)
T0CF4 003:306 JLINK_ReadMem (0x08000A4C, 0x003C Bytes, ...) -- CPU_ReadMem(64 bytes @ 0x08000A80) -- Updating C cache (64 bytes @ 0x08000A80) -- Read from C cache (60 bytes @ 0x08000A4C) -- Data:  FF F7 BA FF FB E7 00 00 48 45 4C 4C 4F 2C 20 57 ...  returns 0x00 (0001ms, 0732ms total)
T0CF4 003:307 JLINK_Step() -- Read from C cache (2 bytes @ 0x08000A4A) -- Simulated  returns 0x00 (0001ms, 0733ms total)
T0CF4 003:308 JLINK_ReadReg(R15 (PC))  returns 0x08000A4C (0000ms, 0733ms total)
T0CF4 003:308 JLINK_ReadReg(XPSR)  returns 0x61000000 (0000ms, 0733ms total)
T0CF4 003:308 JLINK_SetBPEx(Addr = 0x08000A50, Type = 0xFFFFFFF2)  returns 0x00000008 (0000ms, 0733ms total)
T0CF4 003:308 JLINK_SetBPEx(Addr = 0x08000A38, Type = 0xFFFFFFF2)  returns 0x00000009 (0000ms, 0733ms total)
T0CF4 003:308 JLINK_Go() -- CPU_WriteMem(4 bytes @ 0xE0001004) (0003ms, 0736ms total)
T0CF4 003:411 JLINK_IsHalted()  returns TRUE (0005ms, 0741ms total)
T0CF4 003:416 JLINK_Halt()  returns 0x00 (0000ms, 0736ms total)
T0CF4 003:416 JLINK_IsHalted()  returns TRUE (0000ms, 0736ms total)
T0CF4 003:416 JLINK_IsHalted()  returns TRUE (0000ms, 0736ms total)
T0CF4 003:416 JLINK_IsHalted()  returns TRUE (0000ms, 0736ms total)
T0CF4 003:416 JLINK_ReadReg(R15 (PC))  returns 0x08000A50 (0000ms, 0736ms total)
T0CF4 003:416 JLINK_ReadReg(XPSR)  returns 0x61000000 (0001ms, 0737ms total)
T0CF4 003:417 JLINK_ClrBPEx(BPHandle = 0x00000008)  returns 0x00 (0000ms, 0737ms total)
T0CF4 003:417 JLINK_ClrBPEx(BPHandle = 0x00000009)  returns 0x00 (0000ms, 0737ms total)
T0CF4 003:417 JLINK_ReadMemU32(0xE000ED30, 0x0001 Items, ...) -- CPU_ReadMem(4 bytes @ 0xE000ED30) -- Data:  03 00 00 00  returns 0x01 (0001ms, 0738ms total)
T0CF4 003:418 JLINK_ReadMemU32(0xE0001028, 0x0001 Items, ...) -- CPU_ReadMem(4 bytes @ 0xE0001028) -- Data:  00 00 00 00  returns 0x01 (0001ms, 0739ms total)
T0CF4 003:419 JLINK_ReadMemU32(0xE0001038, 0x0001 Items, ...) -- CPU_ReadMem(4 bytes @ 0xE0001038) -- Data:  00 02 00 00  returns 0x01 (0001ms, 0740ms total)
T0CF4 003:420 JLINK_ReadMemU32(0xE0001048, 0x0001 Items, ...) -- CPU_ReadMem(4 bytes @ 0xE0001048) -- Data:  00 00 00 00  returns 0x01 (0001ms, 0741ms total)
T0CF4 003:421 JLINK_ReadMemU32(0xE0001058, 0x0001 Items, ...) -- CPU_ReadMem(4 bytes @ 0xE0001058) -- Data:  00 00 00 00  returns 0x01 (0001ms, 0742ms total)
T0CF4 003:422 JLINK_Step() -- CPU_ReadMem(64 bytes @ 0x08000A40) -- Updating C cache (64 bytes @ 0x08000A40) -- Read from C cache (2 bytes @ 0x08000A50) -- CPU_ReadMem(4 bytes @ 0xE0001004) -- Simulated  returns 0x00 (0003ms, 0745ms total)
T0CF4 003:425 JLINK_ReadReg(R15 (PC))  returns 0x08000A4A (0000ms, 0745ms total)
T0CF4 003:425 JLINK_ReadReg(XPSR)  returns 0x61000000 (0000ms, 0745ms total)
T0CF4 003:425 JLINK_ReadReg(R0)  returns 0x0000000D (0000ms, 0745ms total)
T0CF4 003:425 JLINK_ReadReg(R1)  returns 0x00000040 (0000ms, 0745ms total)
T0CF4 003:425 JLINK_ReadReg(R2)  returns 0x40013800 (0000ms, 0745ms total)
T0CF4 003:425 JLINK_ReadReg(R3)  returns 0x00000040 (0000ms, 0745ms total)
T0CF4 003:425 JLINK_ReadReg(R4)  returns 0x08000DC4 (0000ms, 0745ms total)
T0CF4 003:425 JLINK_ReadReg(R5)  returns 0x08000DC4 (0000ms, 0745ms total)
T0CF4 003:425 JLINK_ReadReg(R6)  returns 0x00000000 (0001ms, 0746ms total)
T0CF4 003:426 JLINK_ReadReg(R7)  returns 0x00000000 (0000ms, 0746ms total)
T0CF4 003:426 JLINK_ReadReg(R8)  returns 0x00000000 (0000ms, 0746ms total)
T0CF4 003:426 JLINK_ReadReg(R9)  returns 0x20000160 (0000ms, 0746ms total)
T0CF4 003:426 JLINK_ReadReg(R10)  returns 0x00000000 (0000ms, 0746ms total)
T0CF4 003:426 JLINK_ReadReg(R11)  returns 0x00000000 (0000ms, 0746ms total)
T0CF4 003:426 JLINK_ReadReg(R12)  returns 0x00000400 (0000ms, 0746ms total)
T0CF4 003:426 JLINK_ReadReg(R13 (SP))  returns 0x20001198 (0000ms, 0746ms total)
T0CF4 003:426 JLINK_ReadReg(R14)  returns 0x08000A2D (0000ms, 0746ms total)
T0CF4 003:426 JLINK_ReadReg(R15 (PC))  returns 0x08000A4A (0000ms, 0746ms total)
T0CF4 003:426 JLINK_ReadReg(XPSR)  returns 0x61000000 (0001ms, 0747ms total)
T0CF4 003:427 JLINK_ReadReg(MSP)  returns 0x20001198 (0000ms, 0747ms total)
T0CF4 003:427 JLINK_ReadReg(PSP)  returns 0x20001000 (0000ms, 0747ms total)
T0CF4 003:427 JLINK_ReadReg(CFBP)  returns 0x00000000 (0000ms, 0747ms total)
T0380 003:427 JLINK_ReadMemU32(0xE0001004, 0x0001 Items, ...) -- Data:  CE 35 03 00  returns 0x01 (0000ms, 0747ms total)
T0CF4 003:513 JLINK_ReadMem (0x08000A4A, 0x0002 Bytes, ...) -- Read from C cache (2 bytes @ 0x08000A4A) -- Data:  02 A0  returns 0x00 (0000ms, 0747ms total)
T0CF4 003:513 JLINK_ReadMem (0x08000A4C, 0x003C Bytes, ...) -- CPU_ReadMem(64 bytes @ 0x08000A80) -- Updating C cache (64 bytes @ 0x08000A80) -- Read from C cache (60 bytes @ 0x08000A4C) -- Data:  FF F7 BA FF FB E7 00 00 48 45 4C 4C 4F 2C 20 57 ...  returns 0x00 (0002ms, 0749ms total)
T0CF4 003:515 JLINK_Step() -- Read from C cache (2 bytes @ 0x08000A4A) -- Simulated  returns 0x00 (0000ms, 0749ms total)
T0CF4 003:515 JLINK_ReadReg(R15 (PC))  returns 0x08000A4C (0000ms, 0749ms total)
T0CF4 003:515 JLINK_ReadReg(XPSR)  returns 0x61000000 (0000ms, 0749ms total)
T0CF4 003:515 JLINK_SetBPEx(Addr = 0x08000A50, Type = 0xFFFFFFF2)  returns 0x0000000A (0000ms, 0749ms total)
T0CF4 003:515 JLINK_SetBPEx(Addr = 0x08000A38, Type = 0xFFFFFFF2)  returns 0x0000000B (0000ms, 0749ms total)
T0CF4 003:515 JLINK_Go() -- CPU_WriteMem(4 bytes @ 0xE0001004) (0003ms, 0752ms total)
T0CF4 003:620 JLINK_IsHalted()  returns TRUE (0005ms, 0757ms total)
T0CF4 003:625 JLINK_Halt()  returns 0x00 (0000ms, 0752ms total)
T0CF4 003:625 JLINK_IsHalted()  returns TRUE (0000ms, 0752ms total)
T0CF4 003:625 JLINK_IsHalted()  returns TRUE (0000ms, 0752ms total)
T0CF4 003:625 JLINK_IsHalted()  returns TRUE (0000ms, 0752ms total)
T0CF4 003:625 JLINK_ReadReg(R15 (PC))  returns 0x08000A50 (0000ms, 0752ms total)
T0CF4 003:625 JLINK_ReadReg(XPSR)  returns 0x61000000 (0000ms, 0752ms total)
T0CF4 003:625 JLINK_ClrBPEx(BPHandle = 0x0000000A)  returns 0x00 (0000ms, 0752ms total)
T0CF4 003:625 JLINK_ClrBPEx(BPHandle = 0x0000000B)  returns 0x00 (0000ms, 0752ms total)
T0CF4 003:625 JLINK_ReadMemU32(0xE000ED30, 0x0001 Items, ...) -- CPU_ReadMem(4 bytes @ 0xE000ED30) -- Data:  03 00 00 00  returns 0x01 (0001ms, 0753ms total)
T0CF4 003:626 JLINK_ReadMemU32(0xE0001028, 0x0001 Items, ...) -- CPU_ReadMem(4 bytes @ 0xE0001028) -- Data:  00 00 00 00  returns 0x01 (0001ms, 0754ms total)
T0CF4 003:627 JLINK_ReadMemU32(0xE0001038, 0x0001 Items, ...) -- CPU_ReadMem(4 bytes @ 0xE0001038) -- Data:  00 02 00 00  returns 0x01 (0002ms, 0756ms total)
T0CF4 003:629 JLINK_ReadMemU32(0xE0001048, 0x0001 Items, ...) -- CPU_ReadMem(4 bytes @ 0xE0001048) -- Data:  00 00 00 00  returns 0x01 (0001ms, 0757ms total)
T0CF4 003:630 JLINK_ReadMemU32(0xE0001058, 0x0001 Items, ...) -- CPU_ReadMem(4 bytes @ 0xE0001058) -- Data:  00 00 00 00  returns 0x01 (0000ms, 0757ms total)
T0CF4 003:631 JLINK_Step() -- CPU_ReadMem(64 bytes @ 0x08000A40) -- Updating C cache (64 bytes @ 0x08000A40) -- Read from C cache (2 bytes @ 0x08000A50) -- CPU_ReadMem(4 bytes @ 0xE0001004) -- Simulated  returns 0x00 (0002ms, 0759ms total)
T0CF4 003:633 JLINK_ReadReg(R15 (PC))  returns 0x08000A4A (0000ms, 0759ms total)
T0CF4 003:633 JLINK_ReadReg(XPSR)  returns 0x61000000 (0000ms, 0759ms total)
T0CF4 003:633 JLINK_ReadReg(R0)  returns 0x0000000D (0000ms, 0759ms total)
T0CF4 003:633 JLINK_ReadReg(R1)  returns 0x00000040 (0000ms, 0759ms total)
T0CF4 003:633 JLINK_ReadReg(R2)  returns 0x40013800 (0000ms, 0759ms total)
T0CF4 003:633 JLINK_ReadReg(R3)  returns 0x00000040 (0000ms, 0759ms total)
T0CF4 003:633 JLINK_ReadReg(R4)  returns 0x08000DC4 (0000ms, 0759ms total)
T0CF4 003:633 JLINK_ReadReg(R5)  returns 0x08000DC4 (0001ms, 0760ms total)
T0CF4 003:634 JLINK_ReadReg(R6)  returns 0x00000000 (0000ms, 0760ms total)
T0CF4 003:634 JLINK_ReadReg(R7)  returns 0x00000000 (0000ms, 0760ms total)
T0CF4 003:634 JLINK_ReadReg(R8)  returns 0x00000000 (0000ms, 0760ms total)
T0CF4 003:634 JLINK_ReadReg(R9)  returns 0x20000160 (0000ms, 0760ms total)
T0CF4 003:634 JLINK_ReadReg(R10)  returns 0x00000000 (0000ms, 0760ms total)
T0CF4 003:634 JLINK_ReadReg(R11)  returns 0x00000000 (0000ms, 0760ms total)
T0CF4 003:634 JLINK_ReadReg(R12)  returns 0x00000400 (0000ms, 0760ms total)
T0CF4 003:634 JLINK_ReadReg(R13 (SP))  returns 0x20001198 (0000ms, 0760ms total)
T0CF4 003:634 JLINK_ReadReg(R14)  returns 0x08000A2D (0000ms, 0760ms total)
T0CF4 003:634 JLINK_ReadReg(R15 (PC))  returns 0x08000A4A (0000ms, 0760ms total)
T0CF4 003:634 JLINK_ReadReg(XPSR)  returns 0x61000000 (0000ms, 0760ms total)
T0CF4 003:634 JLINK_ReadReg(MSP)  returns 0x20001198 (0000ms, 0760ms total)
T0CF4 003:634 JLINK_ReadReg(PSP)  returns 0x20001000 (0000ms, 0760ms total)
T0CF4 003:634 JLINK_ReadReg(CFBP)  returns 0x00000000 (0000ms, 0760ms total)
T0380 003:635 JLINK_ReadMemU32(0xE0001004, 0x0001 Items, ...) -- Data:  B1 91 04 00  returns 0x01 (0000ms, 0760ms total)
T0CF4 003:683 JLINK_ReadMem (0x08000A4A, 0x0002 Bytes, ...) -- Read from C cache (2 bytes @ 0x08000A4A) -- Data:  02 A0  returns 0x00 (0000ms, 0760ms total)
T0CF4 003:683 JLINK_ReadMem (0x08000A4C, 0x003C Bytes, ...) -- CPU_ReadMem(64 bytes @ 0x08000A80) -- Updating C cache (64 bytes @ 0x08000A80) -- Read from C cache (60 bytes @ 0x08000A4C) -- Data:  FF F7 BA FF FB E7 00 00 48 45 4C 4C 4F 2C 20 57 ...  returns 0x00 (0002ms, 0762ms total)
T0CF4 003:685 JLINK_Step() -- Read from C cache (2 bytes @ 0x08000A4A) -- Simulated  returns 0x00 (0000ms, 0762ms total)
T0CF4 003:685 JLINK_ReadReg(R15 (PC))  returns 0x08000A4C (0000ms, 0762ms total)
T0CF4 003:685 JLINK_ReadReg(XPSR)  returns 0x61000000 (0000ms, 0762ms total)
T0CF4 003:685 JLINK_SetBPEx(Addr = 0x08000A50, Type = 0xFFFFFFF2)  returns 0x0000000C (0000ms, 0762ms total)
T0CF4 003:685 JLINK_SetBPEx(Addr = 0x08000A38, Type = 0xFFFFFFF2)  returns 0x0000000D (0000ms, 0762ms total)
T0CF4 003:685 JLINK_Go() -- CPU_WriteMem(4 bytes @ 0xE0001004) (0003ms, 0765ms total)
T0CF4 003:789 JLINK_IsHalted()  returns TRUE (0005ms, 0770ms total)
T0CF4 003:794 JLINK_Halt()  returns 0x00 (0000ms, 0765ms total)
T0CF4 003:794 JLINK_IsHalted()  returns TRUE (0000ms, 0765ms total)
T0CF4 003:794 JLINK_IsHalted()  returns TRUE (0000ms, 0765ms total)
T0CF4 003:794 JLINK_IsHalted()  returns TRUE (0000ms, 0765ms total)
T0CF4 003:794 JLINK_ReadReg(R15 (PC))  returns 0x08000A50 (0000ms, 0765ms total)
T0CF4 003:794 JLINK_ReadReg(XPSR)  returns 0x61000000 (0000ms, 0765ms total)
T0CF4 003:794 JLINK_ClrBPEx(BPHandle = 0x0000000C)  returns 0x00 (0000ms, 0765ms total)
T0CF4 003:794 JLINK_ClrBPEx(BPHandle = 0x0000000D)  returns 0x00 (0000ms, 0765ms total)
T0CF4 003:794 JLINK_ReadMemU32(0xE000ED30, 0x0001 Items, ...) -- CPU_ReadMem(4 bytes @ 0xE000ED30) -- Data:  03 00 00 00  returns 0x01 (0001ms, 0766ms total)
T0CF4 003:795 JLINK_ReadMemU32(0xE0001028, 0x0001 Items, ...) -- CPU_ReadMem(4 bytes @ 0xE0001028) -- Data:  00 00 00 00  returns 0x01 (0001ms, 0767ms total)
T0CF4 003:796 JLINK_ReadMemU32(0xE0001038, 0x0001 Items, ...) -- CPU_ReadMem(4 bytes @ 0xE0001038) -- Data:  00 02 00 00  returns 0x01 (0001ms, 0768ms total)
T0CF4 003:797 JLINK_ReadMemU32(0xE0001048, 0x0001 Items, ...) -- CPU_ReadMem(4 bytes @ 0xE0001048) -- Data:  00 00 00 00  returns 0x01 (0001ms, 0769ms total)
T0CF4 003:798 JLINK_ReadMemU32(0xE0001058, 0x0001 Items, ...) -- CPU_ReadMem(4 bytes @ 0xE0001058) -- Data:  00 00 00 00  returns 0x01 (0001ms, 0770ms total)
T0CF4 003:799 JLINK_Step() -- CPU_ReadMem(64 bytes @ 0x08000A40) -- Updating C cache (64 bytes @ 0x08000A40) -- Read from C cache (2 bytes @ 0x08000A50) -- CPU_ReadMem(4 bytes @ 0xE0001004) -- Simulated  returns 0x00 (0002ms, 0772ms total)
T0CF4 003:801 JLINK_ReadReg(R15 (PC))  returns 0x08000A4A (0000ms, 0772ms total)
T0CF4 003:801 JLINK_ReadReg(XPSR)  returns 0x61000000 (0000ms, 0772ms total)
T0CF4 003:801 JLINK_ReadReg(R0)  returns 0x0000000D (0000ms, 0772ms total)
T0CF4 003:801 JLINK_ReadReg(R1)  returns 0x00000040 (0000ms, 0772ms total)
T0CF4 003:801 JLINK_ReadReg(R2)  returns 0x40013800 (0000ms, 0772ms total)
T0CF4 003:801 JLINK_ReadReg(R3)  returns 0x00000040 (0000ms, 0772ms total)
T0CF4 003:801 JLINK_ReadReg(R4)  returns 0x08000DC4 (0001ms, 0773ms total)
T0CF4 003:802 JLINK_ReadReg(R5)  returns 0x08000DC4 (0000ms, 0773ms total)
T0CF4 003:802 JLINK_ReadReg(R6)  returns 0x00000000 (0000ms, 0773ms total)
T0CF4 003:802 JLINK_ReadReg(R7)  returns 0x00000000 (0000ms, 0773ms total)
T0CF4 003:802 JLINK_ReadReg(R8)  returns 0x00000000 (0000ms, 0773ms total)
T0CF4 003:802 JLINK_ReadReg(R9)  returns 0x20000160 (0000ms, 0773ms total)
T0CF4 003:802 JLINK_ReadReg(R10)  returns 0x00000000 (0000ms, 0773ms total)
T0CF4 003:802 JLINK_ReadReg(R11)  returns 0x00000000 (0000ms, 0773ms total)
T0CF4 003:802 JLINK_ReadReg(R12)  returns 0x00000400 (0000ms, 0773ms total)
T0CF4 003:802 JLINK_ReadReg(R13 (SP))  returns 0x20001198 (0000ms, 0773ms total)
T0CF4 003:802 JLINK_ReadReg(R14)  returns 0x08000A2D (0000ms, 0773ms total)
T0CF4 003:802 JLINK_ReadReg(R15 (PC))  returns 0x08000A4A (0000ms, 0773ms total)
T0CF4 003:802 JLINK_ReadReg(XPSR)  returns 0x61000000 (0000ms, 0773ms total)
T0CF4 003:802 JLINK_ReadReg(MSP)  returns 0x20001198 (0000ms, 0773ms total)
T0CF4 003:802 JLINK_ReadReg(PSP)  returns 0x20001000 (0000ms, 0773ms total)
T0CF4 003:802 JLINK_ReadReg(CFBP)  returns 0x00000000 (0000ms, 0773ms total)
T0380 003:803 JLINK_ReadMemU32(0xE0001004, 0x0001 Items, ...) -- Data:  61 EE 05 00  returns 0x01 (0000ms, 0773ms total)
T0CF4 003:856 JLINK_ReadMem (0x08000A4A, 0x0002 Bytes, ...) -- Read from C cache (2 bytes @ 0x08000A4A) -- Data:  02 A0  returns 0x00 (0000ms, 0773ms total)
T0CF4 003:856 JLINK_ReadMem (0x08000A4C, 0x003C Bytes, ...) -- CPU_ReadMem(64 bytes @ 0x08000A80) -- Updating C cache (64 bytes @ 0x08000A80) -- Read from C cache (60 bytes @ 0x08000A4C) -- Data:  FF F7 BA FF FB E7 00 00 48 45 4C 4C 4F 2C 20 57 ...  returns 0x00 (0002ms, 0775ms total)
T0CF4 003:858 JLINK_Step() -- Read from C cache (2 bytes @ 0x08000A4A) -- Simulated  returns 0x00 (0000ms, 0775ms total)
T0CF4 003:858 JLINK_ReadReg(R15 (PC))  returns 0x08000A4C (0000ms, 0775ms total)
T0CF4 003:858 JLINK_ReadReg(XPSR)  returns 0x61000000 (0000ms, 0775ms total)
T0CF4 003:858 JLINK_SetBPEx(Addr = 0x08000A50, Type = 0xFFFFFFF2)  returns 0x0000000E (0000ms, 0775ms total)
T0CF4 003:858 JLINK_SetBPEx(Addr = 0x08000A38, Type = 0xFFFFFFF2)  returns 0x0000000F (0000ms, 0775ms total)
T0CF4 003:858 JLINK_Go() -- CPU_WriteMem(4 bytes @ 0xE0001004) (0003ms, 0778ms total)
T0CF4 003:961 JLINK_IsHalted()  returns TRUE (0005ms, 0783ms total)
T0CF4 003:966 JLINK_Halt()  returns 0x00 (0000ms, 0778ms total)
T0CF4 003:966 JLINK_IsHalted()  returns TRUE (0000ms, 0778ms total)
T0CF4 003:967 JLINK_IsHalted()  returns TRUE (0000ms, 0778ms total)
T0CF4 003:967 JLINK_IsHalted()  returns TRUE (0000ms, 0778ms total)
T0CF4 003:967 JLINK_ReadReg(R15 (PC))  returns 0x08000A50 (0000ms, 0778ms total)
T0CF4 003:967 JLINK_ReadReg(XPSR)  returns 0x61000000 (0000ms, 0778ms total)
T0CF4 003:967 JLINK_ClrBPEx(BPHandle = 0x0000000E)  returns 0x00 (0000ms, 0778ms total)
T0CF4 003:967 JLINK_ClrBPEx(BPHandle = 0x0000000F)  returns 0x00 (0000ms, 0778ms total)
T0CF4 003:967 JLINK_ReadMemU32(0xE000ED30, 0x0001 Items, ...) -- CPU_ReadMem(4 bytes @ 0xE000ED30) -- Data:  03 00 00 00  returns 0x01 (0001ms, 0779ms total)
T0CF4 003:968 JLINK_ReadMemU32(0xE0001028, 0x0001 Items, ...) -- CPU_ReadMem(4 bytes @ 0xE0001028) -- Data:  00 00 00 00  returns 0x01 (0001ms, 0780ms total)
T0CF4 003:969 JLINK_ReadMemU32(0xE0001038, 0x0001 Items, ...) -- CPU_ReadMem(4 bytes @ 0xE0001038) -- Data:  00 02 00 00  returns 0x01 (0001ms, 0781ms total)
T0CF4 003:970 JLINK_ReadMemU32(0xE0001048, 0x0001 Items, ...) -- CPU_ReadMem(4 bytes @ 0xE0001048) -- Data:  00 00 00 00  returns 0x01 (0001ms, 0782ms total)
T0CF4 003:971 JLINK_ReadMemU32(0xE0001058, 0x0001 Items, ...) -- CPU_ReadMem(4 bytes @ 0xE0001058) -- Data:  00 00 00 00  returns 0x01 (0001ms, 0783ms total)
T0CF4 003:972 JLINK_Step() -- CPU_ReadMem(64 bytes @ 0x08000A40) -- Updating C cache (64 bytes @ 0x08000A40) -- Read from C cache (2 bytes @ 0x08000A50) -- CPU_ReadMem(4 bytes @ 0xE0001004) -- Simulated  returns 0x00 (0002ms, 0785ms total)
T0CF4 003:974 JLINK_ReadReg(R15 (PC))  returns 0x08000A4A (0000ms, 0785ms total)
T0CF4 003:974 JLINK_ReadReg(XPSR)  returns 0x61000000 (0001ms, 0786ms total)
T0CF4 003:975 JLINK_ReadReg(R0)  returns 0x0000000D (0000ms, 0786ms total)
T0CF4 003:975 JLINK_ReadReg(R1)  returns 0x00000040 (0000ms, 0786ms total)
T0CF4 003:975 JLINK_ReadReg(R2)  returns 0x40013800 (0000ms, 0786ms total)
T0CF4 003:975 JLINK_ReadReg(R3)  returns 0x00000040 (0000ms, 0786ms total)
T0CF4 003:975 JLINK_ReadReg(R4)  returns 0x08000DC4 (0000ms, 0786ms total)
T0CF4 003:975 JLINK_ReadReg(R5)  returns 0x08000DC4 (0000ms, 0786ms total)
T0CF4 003:975 JLINK_ReadReg(R6)  returns 0x00000000 (0000ms, 0786ms total)
T0CF4 003:975 JLINK_ReadReg(R7)  returns 0x00000000 (0000ms, 0786ms total)
T0CF4 003:975 JLINK_ReadReg(R8)  returns 0x00000000 (0000ms, 0786ms total)
T0CF4 003:975 JLINK_ReadReg(R9)  returns 0x20000160 (0000ms, 0786ms total)
T0CF4 003:975 JLINK_ReadReg(R10)  returns 0x00000000 (0000ms, 0786ms total)
T0CF4 003:975 JLINK_ReadReg(R11)  returns 0x00000000 (0000ms, 0786ms total)
T0CF4 003:975 JLINK_ReadReg(R12)  returns 0x00000400 (0000ms, 0786ms total)
T0CF4 003:975 JLINK_ReadReg(R13 (SP))  returns 0x20001198 (0000ms, 0786ms total)
T0CF4 003:975 JLINK_ReadReg(R14)  returns 0x08000A2D (0001ms, 0787ms total)
T0CF4 003:976 JLINK_ReadReg(R15 (PC))  returns 0x08000A4A (0000ms, 0787ms total)
T0CF4 003:976 JLINK_ReadReg(XPSR)  returns 0x61000000 (0000ms, 0787ms total)
T0CF4 003:976 JLINK_ReadReg(MSP)  returns 0x20001198 (0000ms, 0787ms total)
T0CF4 003:976 JLINK_ReadReg(PSP)  returns 0x20001000 (0000ms, 0787ms total)
T0CF4 003:976 JLINK_ReadReg(CFBP)  returns 0x00000000 (0000ms, 0787ms total)
T0380 003:976 JLINK_ReadMemU32(0xE0001004, 0x0001 Items, ...) -- Data:  DE 4B 07 00  returns 0x01 (0000ms, 0787ms total)
T0CF4 004:016 JLINK_ReadMem (0x08000A4A, 0x0002 Bytes, ...) -- Read from C cache (2 bytes @ 0x08000A4A) -- Data:  02 A0  returns 0x00 (0000ms, 0787ms total)
T0CF4 004:016 JLINK_ReadMem (0x08000A4C, 0x003C Bytes, ...) -- CPU_ReadMem(64 bytes @ 0x08000A80) -- Updating C cache (64 bytes @ 0x08000A80) -- Read from C cache (60 bytes @ 0x08000A4C) -- Data:  FF F7 BA FF FB E7 00 00 48 45 4C 4C 4F 2C 20 57 ...  returns 0x00 (0002ms, 0789ms total)
T0CF4 004:018 JLINK_Step() -- Read from C cache (2 bytes @ 0x08000A4A) -- Simulated  returns 0x00 (0000ms, 0789ms total)
T0CF4 004:018 JLINK_ReadReg(R15 (PC))  returns 0x08000A4C (0000ms, 0789ms total)
T0CF4 004:018 JLINK_ReadReg(XPSR)  returns 0x61000000 (0000ms, 0789ms total)
T0CF4 004:018 JLINK_SetBPEx(Addr = 0x08000A50, Type = 0xFFFFFFF2)  returns 0x00000010 (0000ms, 0789ms total)
T0CF4 004:018 JLINK_SetBPEx(Addr = 0x08000A38, Type = 0xFFFFFFF2)  returns 0x00000011 (0000ms, 0789ms total)
T0CF4 004:018 JLINK_Go() -- CPU_WriteMem(4 bytes @ 0xE0001004) (0003ms, 0792ms total)
T0CF4 004:121 JLINK_IsHalted()  returns TRUE (0005ms, 0797ms total)
T0CF4 004:126 JLINK_Halt()  returns 0x00 (0000ms, 0792ms total)
T0CF4 004:126 JLINK_IsHalted()  returns TRUE (0000ms, 0792ms total)
T0CF4 004:126 JLINK_IsHalted()  returns TRUE (0000ms, 0792ms total)
T0CF4 004:126 JLINK_IsHalted()  returns TRUE (0000ms, 0792ms total)
T0CF4 004:126 JLINK_ReadReg(R15 (PC))  returns 0x08000A50 (0000ms, 0792ms total)
T0CF4 004:126 JLINK_ReadReg(XPSR)  returns 0x61000000 (0000ms, 0792ms total)
T0CF4 004:126 JLINK_ClrBPEx(BPHandle = 0x00000010)  returns 0x00 (0000ms, 0792ms total)
T0CF4 004:126 JLINK_ClrBPEx(BPHandle = 0x00000011)  returns 0x00 (0000ms, 0792ms total)
T0CF4 004:126 JLINK_ReadMemU32(0xE000ED30, 0x0001 Items, ...) -- CPU_ReadMem(4 bytes @ 0xE000ED30) -- Data:  03 00 00 00  returns 0x01 (0001ms, 0793ms total)
T0CF4 004:127 JLINK_ReadMemU32(0xE0001028, 0x0001 Items, ...) -- CPU_ReadMem(4 bytes @ 0xE0001028) -- Data:  00 00 00 00  returns 0x01 (0001ms, 0794ms total)
T0CF4 004:128 JLINK_ReadMemU32(0xE0001038, 0x0001 Items, ...) -- CPU_ReadMem(4 bytes @ 0xE0001038) -- Data:  00 02 00 00  returns 0x01 (0001ms, 0795ms total)
T0CF4 004:129 JLINK_ReadMemU32(0xE0001048, 0x0001 Items, ...) -- CPU_ReadMem(4 bytes @ 0xE0001048) -- Data:  00 00 00 00  returns 0x01 (0001ms, 0796ms total)
T0CF4 004:130 JLINK_ReadMemU32(0xE0001058, 0x0001 Items, ...) -- CPU_ReadMem(4 bytes @ 0xE0001058) -- Data:  00 00 00 00  returns 0x01 (0001ms, 0797ms total)
T0CF4 004:131 JLINK_Step() -- CPU_ReadMem(64 bytes @ 0x08000A40) -- Updating C cache (64 bytes @ 0x08000A40) -- Read from C cache (2 bytes @ 0x08000A50) -- CPU_ReadMem(4 bytes @ 0xE0001004) -- Simulated  returns 0x00 (0003ms, 0800ms total)
T0CF4 004:134 JLINK_ReadReg(R15 (PC))  returns 0x08000A4A (0000ms, 0800ms total)
T0CF4 004:134 JLINK_ReadReg(XPSR)  returns 0x61000000 (0000ms, 0800ms total)
T0CF4 004:134 JLINK_ReadReg(R0)  returns 0x0000000D (0000ms, 0800ms total)
T0CF4 004:134 JLINK_ReadReg(R1)  returns 0x00000040 (0000ms, 0800ms total)
T0CF4 004:134 JLINK_ReadReg(R2)  returns 0x40013800 (0000ms, 0800ms total)
T0CF4 004:134 JLINK_ReadReg(R3)  returns 0x00000040 (0000ms, 0800ms total)
T0CF4 004:134 JLINK_ReadReg(R4)  returns 0x08000DC4 (0000ms, 0800ms total)
T0CF4 004:134 JLINK_ReadReg(R5)  returns 0x08000DC4 (0000ms, 0800ms total)
T0CF4 004:134 JLINK_ReadReg(R6)  returns 0x00000000 (0000ms, 0800ms total)
T0CF4 004:134 JLINK_ReadReg(R7)  returns 0x00000000 (0000ms, 0800ms total)
T0CF4 004:134 JLINK_ReadReg(R8)  returns 0x00000000 (0000ms, 0800ms total)
T0CF4 004:134 JLINK_ReadReg(R9)  returns 0x20000160 (0000ms, 0800ms total)
T0CF4 004:134 JLINK_ReadReg(R10)  returns 0x00000000 (0000ms, 0800ms total)
T0CF4 004:134 JLINK_ReadReg(R11)  returns 0x00000000 (0001ms, 0801ms total)
T0CF4 004:135 JLINK_ReadReg(R12)  returns 0x00000400 (0000ms, 0801ms total)
T0CF4 004:135 JLINK_ReadReg(R13 (SP))  returns 0x20001198 (0000ms, 0801ms total)
T0CF4 004:135 JLINK_ReadReg(R14)  returns 0x08000A2D (0000ms, 0801ms total)
T0CF4 004:135 JLINK_ReadReg(R15 (PC))  returns 0x08000A4A (0000ms, 0801ms total)
T0CF4 004:135 JLINK_ReadReg(XPSR)  returns 0x61000000 (0000ms, 0801ms total)
T0CF4 004:135 JLINK_ReadReg(MSP)  returns 0x20001198 (0000ms, 0801ms total)
T0CF4 004:135 JLINK_ReadReg(PSP)  returns 0x20001000 (0000ms, 0801ms total)
T0CF4 004:135 JLINK_ReadReg(CFBP)  returns 0x00000000 (0000ms, 0801ms total)
T0380 004:136 JLINK_ReadMemU32(0xE0001004, 0x0001 Items, ...) -- Data:  09 A9 08 00  returns 0x01 (0000ms, 0801ms total)
T0CF4 004:170 JLINK_ReadMem (0x08000A4A, 0x0002 Bytes, ...) -- Read from C cache (2 bytes @ 0x08000A4A) -- Data:  02 A0  returns 0x00 (0000ms, 0801ms total)
T0CF4 004:170 JLINK_ReadMem (0x08000A4C, 0x003C Bytes, ...) -- CPU_ReadMem(64 bytes @ 0x08000A80) -- Updating C cache (64 bytes @ 0x08000A80) -- Read from C cache (60 bytes @ 0x08000A4C) -- Data:  FF F7 BA FF FB E7 00 00 48 45 4C 4C 4F 2C 20 57 ...  returns 0x00 (0001ms, 0802ms total)
